Time [s],Packet ID,Address,Data,Read/Write,ACK/NAK
3
3.887468500000000,0,0x27,0x30,Write,ACK
3.887574500000000,0,0x27,0x34,Write,ACK
3.887681000000000,0,0x27,0x30,Write,ACK
3
3.892594000000000,1,0x27,0x30,Write,ACK
3.892700500000000,1,0x27,0x34,Write,ACK
3.892806500000000,1,0x27,0x30,Write,ACK
3
3.893187000000000,2,0x27,0x30,Write,ACK
3.893293000000000,2,0x27,0x34,Write,ACK
3.893411500000000,2,0x27,0x30,Write,ACK
2
3.893641500000000,3,0x27,0x20,Write,ACK
3.893748000000000,3,0x27,0x24,Write,ACK
3.893854000000000,3,0x27,0x20,Write,ACK
28
3.894084500000000,4,0x27,0x20,Write,ACK
3.894191000000000,4,0x27,0x24,Write,ACK
3.894297000000000,4,0x27,0x20,Write,ACK
3.894415000000000,4,0x27,0x80,Write,ACK
3.894521500000000,4,0x27,0x84,Write,ACK
3.894628000000000,4,0x27,0x80,Write,ACK
0c
3.894858500000000,5,0x27,0x00,Write,ACK
3.894965000000000,5,0x27,0x04,Write,ACK
3.895071000000000,5,0x27,0x00,Write,ACK
3.895177500000000,5,0x27,0xC0,Write,ACK
3.895284000000000,5,0x27,0xC4,Write,ACK
3.895419000000000,5,0x27,0xC0,Write,ACK
01
3.895649000000000,6,0x27,0x00,Write,ACK
3.895755500000000,6,0x27,0x04,Write,ACK
3.895862000000000,6,0x27,0x00,Write,ACK
3.895968000000000,6,0x27,0x10,Write,ACK
3.896074500000000,6,0x27,0x14,Write,ACK
3.896181000000000,6,0x27,0x10,Write,ACK
06
3.896422500000000,7,0x27,0x00,Write,ACK
3.896529000000000,7,0x27,0x04,Write,ACK
3.896635000000000,7,0x27,0x00,Write,ACK
3.896741500000000,7,0x27,0x60,Write,ACK
3.896848000000000,7,0x27,0x64,Write,ACK
3.896954500000000,7,0x27,0x60,Write,ACK
02
3.897185000000000,8,0x27,0x00,Write,ACK
3.897291000000000,8,0x27,0x04,Write,ACK
3.897426000000000,8,0x27,0x00,Write,ACK
3.897532000000000,8,0x27,0x20,Write,ACK
3.897638500000000,8,0x27,0x24,Write,ACK
3.897745000000000,8,0x27,0x20,Write,ACK

3.899600000000000,9,0x27,0x80,Write,ACK
3.899706000000000,9,0x27,0x84,Write,ACK
3.899812500000000,9,0x27,0x80,Write,ACK
3.899919000000000,9,0x27,0x00,Write,ACK
3.900025500000000,9,0x27,0x04,Write,ACK
3.900132000000000,9,0x27,0x00,Write,ACK

3.900239000000000,9,0x27,0x31,Write,ACK
3.900346000000000,9,0x27,0x35,Write,ACK
3.900453500000000,9,0x27,0x31,Write,ACK
3.900560500000000,9,0x27,0x01,Write,ACK
3.900668000000000,9,0x27,0x05,Write,ACK
3.900775000000000,9,0x27,0x01,Write,ACK

3.900882000000000,9,0x27,0x31,Write,ACK
3.900989500000000,9,0x27,0x35,Write,ACK
3.901096500000000,9,0x27,0x31,Write,ACK
3.901204000000000,9,0x27,0x11,Write,ACK
3.901311000000000,9,0x27,0x15,Write,ACK
3.901441000000000,9,0x27,0x11,Write,ACK

3.901548500000000,9,0x27,0x31,Write,ACK
3.901655500000000,9,0x27,0x35,Write,ACK
3.901763000000000,9,0x27,0x31,Write,ACK
3.901870000000000,9,0x27,0x21,Write,ACK
3.901977500000000,9,0x27,0x25,Write,ACK
3.902084500000000,9,0x27,0x21,Write,ACK

3.902191500000000,9,0x27,0x31,Write,ACK
3.902299000000000,9,0x27,0x35,Write,ACK
3.902406000000000,9,0x27,0x31,Write,ACK
3.902513000000000,9,0x27,0x31,Write,ACK
3.902620500000000,9,0x27,0x35,Write,ACK
3.902727500000000,9,0x27,0x31,Write,ACK

3.902835000000000,9,0x27,0x31,Write,ACK
3.902942000000000,9,0x27,0x35,Write,ACK
3.903049500000000,9,0x27,0x31,Write,ACK
3.903156500000000,9,0x27,0x41,Write,ACK
3.903264000000000,9,0x27,0x45,Write,ACK
3.903371000000000,9,0x27,0x41,Write,ACK

3.903478000000000,9,0x27,0x31,Write,ACK
3.903585500000000,9,0x27,0x35,Write,ACK
3.903692500000000,9,0x27,0x31,Write,ACK
3.903799500000000,9,0x27,0x51,Write,ACK
3.903907000000000,9,0x27,0x55,Write,ACK
3.904014000000000,9,0x27,0x51,Write,ACK

3.904121500000000,9,0x27,0x31,Write,ACK
3.904228500000000,9,0x27,0x35,Write,ACK
3.904336000000000,9,0x27,0x31,Write,ACK
3.904452000000000,9,0x27,0x61,Write,ACK
3.904559000000000,9,0x27,0x65,Write,ACK
3.904666500000000,9,0x27,0x61,Write,ACK

3.904773500000000,9,0x27,0x31,Write,ACK
3.904880500000000,9,0x27,0x35,Write,ACK
3.904988000000000,9,0x27,0x31,Write,ACK
3.905095000000000,9,0x27,0x71,Write,ACK
3.905202500000000,9,0x27,0x75,Write,ACK
3.905309500000000,9,0x27,0x71,Write,ACK

3.905417000000000,9,0x27,0x31,Write,ACK
3.905524000000000,9,0x27,0x35,Write,ACK
3.905631000000000,9,0x27,0x31,Write,ACK
3.905738500000000,9,0x27,0x81,Write,ACK
3.905845500000000,9,0x27,0x85,Write,ACK
3.905953000000000,9,0x27,0x81,Write,ACK

3.906060000000000,9,0x27,0x31,Write,ACK
3.906167500000000,9,0x27,0x35,Write,ACK
3.906274500000000,9,0x27,0x31,Write,ACK
3.906381500000000,9,0x27,0x91,Write,ACK
3.906489000000000,9,0x27,0x95,Write,ACK
3.906596000000000,9,0x27,0x91,Write,ACK

3.906703000000000,9,0x27,0x31,Write,ACK
3.906810500000000,9,0x27,0x35,Write,ACK
3.906917500000000,9,0x27,0x31,Write,ACK
3.907025000000000,9,0x27,0x01,Write,ACK
3.907132000000000,9,0x27,0x05,Write,ACK
3.907239500000000,9,0x27,0x01,Write,ACK

3.907346500000000,9,0x27,0x31,Write,ACK
3.907463000000000,9,0x27,0x35,Write,ACK
3.907570000000000,9,0x27,0x31,Write,ACK
3.907677000000000,9,0x27,0x11,Write,ACK
3.907784500000000,9,0x27,0x15,Write,ACK
3.907891500000000,9,0x27,0x11,Write,ACK

3.907999000000000,9,0x27,0x31,Write,ACK
3.908106000000000,9,0x27,0x35,Write,ACK
3.908213500000000,9,0x27,0x31,Write,ACK
3.908320500000000,9,0x27,0x21,Write,ACK
3.908427500000000,9,0x27,0x25,Write,ACK
3.908535000000000,9,0x27,0x21,Write,ACK

3.908642000000000,9,0x27,0x31,Write,ACK
3.908749000000000,9,0x27,0x35,Write,ACK
3.908856500000000,9,0x27,0x31,Write,ACK
3.908963500000000,9,0x27,0x31,Write,ACK
3.909071000000000,9,0x27,0x35,Write,ACK
3.909178000000000,9,0x27,0x31,Write,ACK

3.909285500000000,9,0x27,0x31,Write,ACK
3.909392500000000,9,0x27,0x35,Write,ACK
3.909499500000000,9,0x27,0x31,Write,ACK
3.909607000000000,9,0x27,0x41,Write,ACK
3.909714000000000,9,0x27,0x45,Write,ACK
3.909821500000000,9,0x27,0x41,Write,ACK

3.909928500000000,9,0x27,0x31,Write,ACK
3.910036000000000,9,0x27,0x35,Write,ACK
3.910143000000000,9,0x27,0x31,Write,ACK
3.910250000000000,9,0x27,0x51,Write,ACK
3.910357500000000,9,0x27,0x55,Write,ACK
3.910473500000000,9,0x27,0x51,Write,ACK

3.910581000000000,9,0x27,0x31,Write,ACK
3.910688000000000,9,0x27,0x35,Write,ACK
3.910795000000000,9,0x27,0x31,Write,ACK
3.910902500000000,9,0x27,0x61,Write,ACK
3.911009500000000,9,0x27,0x65,Write,ACK
3.911117000000000,9,0x27,0x61,Write,ACK

3.911224000000000,9,0x27,0x31,Write,ACK
3.911331500000000,9,0x27,0x35,Write,ACK
3.911438500000000,9,0x27,0x31,Write,ACK
3.911545500000000,9,0x27,0x71,Write,ACK
3.911653000000000,9,0x27,0x75,Write,ACK
3.911760000000000,9,0x27,0x71,Write,ACK

3.911867500000000,9,0x27,0x31,Write,ACK
3.911974500000000,9,0x27,0x35,Write,ACK
3.912082000000000,9,0x27,0x31,Write,ACK
3.912189000000000,9,0x27,0x81,Write,ACK
3.912296000000000,9,0x27,0x85,Write,ACK
3.912403500000000,9,0x27,0x81,Write,ACK

3.912510500000000,9,0x27,0x31,Write,ACK
3.912617500000000,9,0x27,0x35,Write,ACK
3.912725000000000,9,0x27,0x31,Write,ACK
3.912832000000000,9,0x27,0x91,Write,ACK
3.912939500000000,9,0x27,0x95,Write,ACK
3.913046500000000,9,0x27,0x91,Write,ACK
3
4.261597000000000,10,0x27,0x30,Write,ACK
4.261703000000000,10,0x27,0x34,Write,ACK
4.261809500000000,10,0x27,0x30,Write,ACK
3
4.266722500000000,11,0x27,0x30,Write,ACK
4.266829000000000,11,0x27,0x34,Write,ACK
4.266935500000000,11,0x27,0x30,Write,ACK
3
4.267315500000000,12,0x27,0x30,Write,ACK
4.267421500000000,12,0x27,0x34,Write,ACK
4.267540000000000,12,0x27,0x30,Write,ACK
2
4.267770000000000,13,0x27,0x20,Write,ACK
4.267876500000000,13,0x27,0x24,Write,ACK
4.267982500000000,13,0x27,0x20,Write,ACK
28
4.268213000000000,14,0x27,0x20,Write,ACK
4.268319500000000,14,0x27,0x24,Write,ACK
4.268425500000000,14,0x27,0x20,Write,ACK
4.268544000000000,14,0x27,0x80,Write,ACK
4.268650000000000,14,0x27,0x84,Write,ACK
4.268756500000000,14,0x27,0x80,Write,ACK

4.268987000000000,15,0x27,0x00,Write,ACK
4.269093500000000,15,0x27,0x04,Write,ACK
4.269199500000000,15,0x27,0x00,Write,ACK
4.269306000000000,15,0x27,0xC0,Write,ACK
4.269412500000000,15,0x27,0xC4,Write,ACK
4.269547500000000,15,0x27,0xC0,Write,ACK

4.269777500000000,16,0x27,0x00,Write,ACK
4.269884000000000,16,0x27,0x04,Write,ACK
4.269990500000000,16,0x27,0x00,Write,ACK
4.270097000000000,16,0x27,0x10,Write,ACK
4.270203500000000,16,0x27,0x14,Write,ACK
4.270309500000000,16,0x27,0x10,Write,ACK

4.270551000000000,17,0x27,0x00,Write,ACK
4.270657500000000,17,0x27,0x04,Write,ACK
4.270764000000000,17,0x27,0x00,Write,ACK
4.270870000000000,17,0x27,0x60,Write,ACK
4.270976500000000,17,0x27,0x64,Write,ACK
4.271083000000000,17,0x27,0x60,Write,ACK

4.271313500000000,18,0x27,0x00,Write,ACK
4.271419500000000,18,0x27,0x04,Write,ACK
4.271554500000000,18,0x27,0x00,Write,ACK
4.271661000000000,18,0x27,0x20,Write,ACK
4.271767500000000,18,0x27,0x24,Write,ACK
4.271873500000000,18,0x27,0x20,Write,ACK

4.273728500000000,19,0x27,0x80,Write,ACK
4.273835000000000,19,0x27,0x84,Write,ACK
4.273941000000000,19,0x27,0x80,Write,ACK
4.274047500000000,19,0x27,0x00,Write,ACK
4.274154000000000,19,0x27,0x04,Write,ACK
4.274260500000000,19,0x27,0x00,Write,ACK

4.274367500000000,19,0x27,0x31,Write,ACK
4.274475000000000,19,0x27,0x35,Write,ACK
4.274582000000000,19,0x27,0x31,Write,ACK
4.274689000000000,19,0x27,0x01,Write,ACK
4.274796500000000,19,0x27,0x05,Write,ACK
4.274903500000000,19,0x27,0x01,Write,ACK

4.275011000000000,19,0x27,0x31,Write,ACK
4.275118000000000,19,0x27,0x35,Write,ACK
4.275225000000000,19,0x27,0x31,Write,ACK
4.275332500000000,19,0x27,0x11,Write,ACK
4.275439500000000,19,0x27,0x15,Write,ACK
4.275570000000000,19,0x27,0x11,Write,ACK

4.275677000000000,19,0x27,0x31,Write,ACK
4.275784000000000,19,0x27,0x35,Write,ACK
4.275891500000000,19,0x27,0x31,Write,ACK
4.275998500000000,19,0x27,0x21,Write,ACK
4.276106000000000,19,0x27,0x25,Write,ACK
4.276213000000000,19,0x27,0x21,Write,ACK

4.276320500000000,19,0x27,0x31,Write,ACK
4.276427500000000,19,0x27,0x35,Write,ACK
4.276534500000000,19,0x27,0x31,Write,ACK
4.276642000000000,19,0x27,0x31,Write,ACK
4.276749000000000,19,0x27,0x35,Write,ACK
4.276856500000000,19,0x27,0x31,Write,ACK

4.276963500000000,19,0x27,0x31,Write,ACK
4.277070500000000,19,0x27,0x35,Write,ACK
4.277178000000000,19,0x27,0x31,Write,ACK
4.277285000000000,19,0x27,0x41,Write,ACK
4.277392500000000,19,0x27,0x45,Write,ACK
4.277499500000000,19,0x27,0x41,Write,ACK

4.277607000000000,19,0x27,0x31,Write,ACK
4.277714000000000,19,0x27,0x35,Write,ACK
4.277821000000000,19,0x27,0x31,Write,ACK
4.277928500000000,19,0x27,0x51,Write,ACK
4.278035500000000,19,0x27,0x55,Write,ACK
4.278143000000000,19,0x27,0x51,Write,ACK

4.278250000000000,19,0x27,0x31,Write,ACK
4.278357000000000,19,0x27,0x35,Write,ACK
4.278464500000000,19,0x27,0x31,Write,ACK
4.278580500000000,19,0x27,0x61,Write,ACK
4.278687500000000,19,0x27,0x65,Write,ACK
4.278795000000000,19,0x27,0x61,Write,ACK

4.278902000000000,19,0x27,0x31,Write,ACK
4.279009500000000,19,0x27,0x35,Write,ACK
4.279116500000000,19,0x27,0x31,Write,ACK
4.279224000000000,19,0x27,0x71,Write,ACK
4.279331000000000,19,0x27,0x75,Write,ACK
4.279438000000000,19,0x27,0x71,Write,ACK

4.279545500000000,19,0x27,0x31,Write,ACK
4.279652500000000,19,0x27,0x35,Write,ACK
4.279760000000000,19,0x27,0x31,Write,ACK
4.279867000000000,19,0x27,0x81,Write,ACK
4.279974500000000,19,0x27,0x85,Write,ACK
4.280081500000000,19,0x27,0x81,Write,ACK

4.280188500000000,19,0x27,0x31,Write,ACK
4.280296000000000,19,0x27,0x35,Write,ACK
4.280403000000000,19,0x27,0x31,Write,ACK
4.280510500000000,19,0x27,0x91,Write,ACK
4.280617500000000,19,0x27,0x95,Write,ACK
4.280724500000000,19,0x27,0x91,Write,ACK

4.280832000000000,19,0x27,0x31,Write,ACK
4.280939000000000,19,0x27,0x35,Write,ACK
4.281046500000000,19,0x27,0x31,Write,ACK
4.281153500000000,19,0x27,0x01,Write,ACK
4.281261000000000,19,0x27,0x05,Write,ACK
4.281368000000000,19,0x27,0x01,Write,ACK

4.281475000000000,19,0x27,0x31,Write,ACK
4.281591500000000,19,0x27,0x35,Write,ACK
4.281698500000000,19,0x27,0x31,Write,ACK
4.281806000000000,19,0x27,0x11,Write,ACK
4.281913000000000,19,0x27,0x15,Write,ACK
4.282020500000000,19,0x27,0x11,Write,ACK

4.282127500000000,19,0x27,0x31,Write,ACK
4.282234500000000,19,0x27,0x35,Write,ACK
4.282342000000000,19,0x27,0x31,Write,ACK
4.282449000000000,19,0x27,0x21,Write,ACK
4.282556500000000,19,0x27,0x25,Write,ACK
4.282663500000000,19,0x27,0x21,Write,ACK

4.282770500000000,19,0x27,0x31,Write,ACK
4.282878000000000,19,0x27,0x35,Write,ACK
4.282985000000000,19,0x27,0x31,Write,ACK
4.283092500000000,19,0x27,0x31,Write,ACK
4.283199500000000,19,0x27,0x35,Write,ACK
4.283307000000000,19,0x27,0x31,Write,ACK

4.283414000000000,19,0x27,0x31,Write,ACK
4.283521000000000,19,0x27,0x35,Write,ACK
4.283628500000000,19,0x27,0x31,Write,ACK
4.283735500000000,19,0x27,0x41,Write,ACK
4.283843000000000,19,0x27,0x45,Write,ACK
4.283950000000000,19,0x27,0x41,Write,ACK

4.284057000000000,19,0x27,0x31,Write,ACK
4.284164500000000,19,0x27,0x35,Write,ACK
4.284271500000000,19,0x27,0x31,Write,ACK
4.284379000000000,19,0x27,0x51,Write,ACK
4.284486000000000,19,0x27,0x55,Write,ACK
4.284602500000000,19,0x27,0x51,Write,ACK

4.284709500000000,19,0x27,0x31,Write,ACK
4.284816500000000,19,0x27,0x35,Write,ACK
4.284924000000000,19,0x27,0x31,Write,ACK
4.285031000000000,19,0x27,0x61,Write,ACK
4.285138500000000,19,0x27,0x65,Write,ACK
4.285245500000000,19,0x27,0x61,Write,ACK

4.285353000000000,19,0x27,0x31,Write,ACK
4.285460000000000,19,0x27,0x35,Write,ACK
4.285567000000000,19,0x27,0x31,Write,ACK
4.285674500000000,19,0x27,0x71,Write,ACK
4.285781500000000,19,0x27,0x75,Write,ACK
4.285889000000000,19,0x27,0x71,Write,ACK

4.285996000000000,19,0x27,0x31,Write,ACK
4.286103000000000,19,0x27,0x35,Write,ACK
4.286210500000000,19,0x27,0x31,Write,ACK
4.286317500000000,19,0x27,0x81,Write,ACK
4.286425000000000,19,0x27,0x85,Write,ACK
4.286532000000000,19,0x27,0x81,Write,ACK

4.286639500000000,19,0x27,0x31,Write,ACK
4.286746500000000,19,0x27,0x35,Write,ACK
4.286853500000000,19,0x27,0x31,Write,ACK
4.286961000000000,19,0x27,0x91,Write,ACK
4.287068000000000,19,0x27,0x95,Write,ACK
4.287175500000000,19,0x27,0x91,Write,ACK

4.662418000000000,20,0x27,0x30,Write,ACK
4.662524000000000,20,0x27,0x34,Write,ACK
4.662630500000000,20,0x27,0x30,Write,ACK

4.667544000000000,21,0x27,0x30,Write,ACK
4.667650000000000,21,0x27,0x34,Write,ACK
4.667756500000000,21,0x27,0x30,Write,ACK

4.668136500000000,22,0x27,0x30,Write,ACK
4.668243000000000,22,0x27,0x34,Write,ACK
4.668361000000000,22,0x27,0x30,Write,ACK

4.668591000000000,23,0x27,0x20,Write,ACK
4.668697500000000,23,0x27,0x24,Write,ACK
4.668803500000000,23,0x27,0x20,Write,ACK

4.669034000000000,24,0x27,0x20,Write,ACK
4.669140500000000,24,0x27,0x24,Write,ACK
4.669247000000000,24,0x27,0x20,Write,ACK
4.669365000000000,24,0x27,0x80,Write,ACK
4.669471500000000,24,0x27,0x84,Write,ACK
4.669577500000000,24,0x27,0x80,Write,ACK

4.669808000000000,25,0x27,0x00,Write,ACK
4.669914500000000,25,0x27,0x04,Write,ACK
4.670021000000000,25,0x27,0x00,Write,ACK
4.670127000000000,25,0x27,0xC0,Write,ACK
4.670233500000000,25,0x27,0xC4,Write,ACK
4.670368500000000,25,0x27,0xC0,Write,ACK

4.670598500000000,26,0x27,0x00,Write,ACK
4.670705000000000,26,0x27,0x04,Write,ACK
4.670811500000000,26,0x27,0x00,Write,ACK
4.670918000000000,26,0x27,0x10,Write,ACK
4.671024500000000,26,0x27,0x14,Write,ACK
4.671130500000000,26,0x27,0x10,Write,ACK

4.671372000000000,27,0x27,0x00,Write,ACK
4.671478500000000,27,0x27,0x04,Write,ACK
4.671585000000000,27,0x27,0x00,Write,ACK
4.671691000000000,27,0x27,0x60,Write,ACK
4.671797500000000,27,0x27,0x64,Write,ACK
4.671904000000000,27,0x27,0x60,Write,ACK

4.672134500000000,28,0x27,0x00,Write,ACK
4.672241000000000,28,0x27,0x04,Write,ACK
4.672375500000000,28,0x27,0x00,Write,ACK
4.672482000000000,28,0x27,0x20,Write,ACK
4.672588500000000,28,0x27,0x24,Write,ACK
4.672694500000000,28,0x27,0x20,Write,ACK

4.674549500000000,29,0x27,0x80,Write,ACK
4.674656000000000,29,0x27,0x84,Write,ACK
4.674762000000000,29,0x27,0x80,Write,ACK
4.674868500000000,29,0x27,0x00,Write,ACK
4.674975000000000,29,0x27,0x04,Write,ACK
4.675081500000000,29,0x27,0x00,Write,ACK

4.675188500000000,29,0x27,0x31,Write,ACK
4.675296000000000,29,0x27,0x35,Write,ACK
4.675403000000000,29,0x27,0x31,Write,ACK
4.675510000000000,29,0x27,0x01,Write,ACK
4.675617500000000,29,0x27,0x05,Write,ACK
4.675724500000000,29,0x27,0x01,Write,ACK

4.675832000000000,29,0x27,0x31,Write,ACK
4.675939000000000,29,0x27,0x35,Write,ACK
4.676046500000000,29,0x27,0x31,Write,ACK
4.676153500000000,29,0x27,0x11,Write,ACK
4.676261000000000,29,0x27,0x15,Write,ACK
4.676391000000000,29,0x27,0x11,Write,ACK

4.676498000000000,29,0x27,0x31,Write,ACK
4.676605500000000,29,0x27,0x35,Write,ACK
4.676712500000000,29,0x27,0x31,Write,ACK
4.676819500000000,29,0x27,0x21,Write,ACK
4.676927000000000,29,0x27,0x25,Write,ACK
4.677034000000000,29,0x27,0x21,Write,ACK

4.677141500000000,29,0x27,0x31,Write,ACK
4.677248500000000,29,0x27,0x35,Write,ACK
4.677356000000000,29,0x27,0x31,Write,ACK
4.677463000000000,29,0x27,0x31,Write,ACK
4.677570000000000,29,0x27,0x35,Write,ACK
4.677677500000000,29,0x27,0x31,Write,ACK

4.677784500000000,29,0x27,0x31,Write,ACK
4.677892000000000,29,0x27,0x35,Write,ACK
4.677999000000000,29,0x27,0x31,Write,ACK
4.678106000000000,29,0x27,0x41,Write,ACK
4.678213500000000,29,0x27,0x45,Write,ACK
4.678320500000000,29,0x27,0x41,Write,ACK

4.678428000000000,29,0x27,0x31,Write,ACK
4.678535000000000,29,0x27,0x35,Write,ACK
4.678642000000000,29,0x27,0x31,Write,ACK
4.678749500000000,29,0x27,0x51,Write,ACK
4.678856500000000,29,0x27,0x55,Write,ACK
4.678964000000000,29,0x27,0x51,Write,ACK

4.679071000000000,29,0x27,0x31,Write,ACK
4.679178500000000,29,0x27,0x35,Write,ACK
4.679285500000000,29,0x27,0x31,Write,ACK
4.679401500000000,29,0x27,0x61,Write,ACK
4.679509000000000,29,0x27,0x65,Write,ACK
4.679616000000000,29,0x27,0x61,Write,ACK

4.679723000000000,29,0x27,0x31,Write,ACK
4.679830500000000,29,0x27,0x35,Write,ACK
4.679937500000000,29,0x27,0x31,Write,ACK
4.680045000000000,29,0x27,0x71,Write,ACK
4.680152000000000,29,0x27,0x75,Write,ACK
4.680259500000000,29,0x27,0x71,Write,ACK

4.680366500000000,29,0x27,0x31,Write,ACK
4.680473500000000,29,0x27,0x35,Write,ACK
4.680581000000000,29,0x27,0x31,Write,ACK
4.680688000000000,29,0x27,0x81,Write,ACK
4.680795500000000,29,0x27,0x85,Write,ACK
4.680902500000000,29,0x27,0x81,Write,ACK

4.681010000000000,29,0x27,0x31,Write,ACK
4.681117000000000,29,0x27,0x35,Write,ACK
4.681224000000000,29,0x27,0x31,Write,ACK
4.681331500000000,29,0x27,0x91,Write,ACK
4.681438500000000,29,0x27,0x95,Write,ACK
4.681545500000000,29,0x27,0x91,Write,ACK

4.681653000000000,29,0x27,0x31,Write,ACK
4.681760000000000,29,0x27,0x35,Write,ACK
4.681867500000000,29,0x27,0x31,Write,ACK
4.681974500000000,29,0x27,0x01,Write,ACK
4.682082000000000,29,0x27,0x05,Write,ACK
4.682189000000000,29,0x27,0x01,Write,ACK

4.682296500000000,29,0x27,0x31,Write,ACK
4.682412500000000,29,0x27,0x35,Write,ACK
4.682519500000000,29,0x27,0x31,Write,ACK
4.682627000000000,29,0x27,0x11,Write,ACK
4.682734000000000,29,0x27,0x15,Write,ACK
4.682841500000000,29,0x27,0x11,Write,ACK

4.682948500000000,29,0x27,0x31,Write,ACK
4.683056000000000,29,0x27,0x35,Write,ACK
4.683163000000000,29,0x27,0x31,Write,ACK
4.683270000000000,29,0x27,0x21,Write,ACK
4.683377500000000,29,0x27,0x25,Write,ACK
4.683484500000000,29,0x27,0x21,Write,ACK

4.683591500000000,29,0x27,0x31,Write,ACK
4.683699000000000,29,0x27,0x35,Write,ACK
4.683806000000000,29,0x27,0x31,Write,ACK
4.683913500000000,29,0x27,0x31,Write,ACK
4.684020500000000,29,0x27,0x35,Write,ACK
4.684128000000000,29,0x27,0x31,Write,ACK

4.684235000000000,29,0x27,0x31,Write,ACK
4.684342500000000,29,0x27,0x35,Write,ACK
4.684449500000000,29,0x27,0x31,Write,ACK
4.684556500000000,29,0x27,0x41,Write,ACK
4.684664000000000,29,0x27,0x45,Write,ACK
4.684771000000000,29,0x27,0x41,Write,ACK

4.684878500000000,29,0x27,0x31,Write,ACK
4.684985500000000,29,0x27,0x35,Write,ACK
4.685092500000000,29,0x27,0x31,Write,ACK
4.685200000000000,29,0x27,0x51,Write,ACK
4.685307000000000,29,0x27,0x55,Write,ACK
4.685423500000000,29,0x27,0x51,Write,ACK

4.685530500000000,29,0x27,0x31,Write,ACK
4.685637500000000,29,0x27,0x35,Write,ACK
4.685745000000000,29,0x27,0x31,Write,ACK
4.685852000000000,29,0x27,0x61,Write,ACK
4.685959500000000,29,0x27,0x65,Write,ACK
4.686066500000000,29,0x27,0x61,Write,ACK

4.686174000000000,29,0x27,0x31,Write,ACK
4.686281000000000,29,0x27,0x35,Write,ACK
4.686388500000000,29,0x27,0x31,Write,ACK
4.686495500000000,29,0x27,0x71,Write,ACK
4.686602500000000,29,0x27,0x75,Write,ACK
4.686710000000000,29,0x27,0x71,Write,ACK
4.686817000000000,29,0x27,0x31,Write,ACK
4.686924500000000,29,0x27,0x35,Write,ACK
4.687031500000000,29,0x27,0x31,Write,ACK
4.687138500000000,29,0x27,0x81,Write,ACK
4.687246000000000,29,0x27,0x85,Write,ACK
4.687353000000000,29,0x27,0x81,Write,ACK
4.687460500000000,29,0x27,0x31,Write,ACK
4.687567500000000,29,0x27,0x35,Write,ACK
4.687674500000000,29,0x27,0x31,Write,ACK
4.687782000000000,29,0x27,0x91,Write,ACK
4.687889000000000,29,0x27,0x95,Write,ACK
4.687996500000000,29,0x27,0x91,Write,ACK
5.304508500000000,30,0x27,0x30,Write,ACK
5.304615000000000,30,0x27,0x34,Write,ACK
5.304721000000000,30,0x27,0x30,Write,ACK
5.309634500000000,31,0x27,0x30,Write,ACK
5.309741000000000,31,0x27,0x34,Write,ACK
5.309847000000000,31,0x27,0x30,Write,ACK
5.310227000000000,32,0x27,0x30,Write,ACK
5.310333500000000,32,0x27,0x34,Write,ACK
5.310451500000000,32,0x27,0x30,Write,ACK
5.310682000000000,33,0x27,0x20,Write,ACK
5.310788000000000,33,0x27,0x24,Write,ACK
5.310894500000000,33,0x27,0x20,Write,ACK
5.311124500000000,34,0x27,0x20,Write,ACK
5.311231000000000,34,0x27,0x24,Write,ACK
5.311337500000000,34,0x27,0x20,Write,ACK
5.311455500000000,34,0x27,0x80,Write,ACK
5.311562000000000,34,0x27,0x84,Write,ACK
5.311668500000000,34,0x27,0x80,Write,ACK
5.311898500000000,35,0x27,0x00,Write,ACK
5.312005000000000,35,0x27,0x04,Write,ACK
5.312111500000000,35,0x27,0x00,Write,ACK
5.312218000000000,35,0x27,0xC0,Write,ACK
5.312324500000000,35,0x27,0xC4,Write,ACK
5.312459000000000,35,0x27,0xC0,Write,ACK
5.312689500000000,36,0x27,0x00,Write,ACK
5.312796000000000,36,0x27,0x04,Write,ACK
5.312902000000000,36,0x27,0x00,Write,ACK
5.313008500000000,36,0x27,0x10,Write,ACK
5.313115000000000,36,0x27,0x14,Write,ACK
5.313221500000000,36,0x27,0x10,Write,ACK
5.313463000000000,37,0x27,0x00,Write,ACK
5.313569000000000,37,0x27,0x04,Write,ACK
5.313675500000000,37,0x27,0x00,Write,ACK
5.313782000000000,37,0x27,0x60,Write,ACK
5.313888500000000,37,0x27,0x64,Write,ACK
5.313995000000000,37,0x27,0x60,Write,ACK
5.314225000000000,38,0x27,0x00,Write,ACK
5.314331500000000,38,0x27,0x04,Write,ACK
5.314466500000000,38,0x27,0x00,Write,ACK
5.314572500000000,38,0x27,0x20,Write,ACK
5.314679000000000,38,0x27,0x24,Write,ACK
5.314785500000000,38,0x27,0x20,Write,ACK
5.316640000000000,39,0x27,0x80,Write,ACK
5.316746500000000,39,0x27,0x84,Write,ACK
5.316853000000000,39,0x27,0x80,Write,ACK
5.316959500000000,39,0x27,0x00,Write,ACK
5.317066000000000,39,0x27,0x04,Write,ACK
5.317172000000000,39,0x27,0x00,Write,ACK
5.317279500000000,39,0x27,0x31,Write,ACK
5.317386500000000,39,0x27,0x35,Write,ACK
5.317494000000000,39,0x27,0x31,Write,ACK
5.317601000000000,39,0x27,0x01,Write,ACK
5.317708000000000,39,0x27,0x05,Write,ACK
5.317815500000000,39,0x27,0x01,Write,ACK
5.317922500000000,39,0x27,0x31,Write,ACK
5.318030000000000,39,0x27,0x35,Write,ACK
5.318137000000000,39,0x27,0x31,Write,ACK
5.318244000000000,39,0x27,0x11,Write,ACK
5.318351500000000,39,0x27,0x15,Write,ACK
5.318481500000000,39,0x27,0x11,Write,ACK
5.318589000000000,39,0x27,0x31,Write,ACK
5.318696000000000,39,0x27,0x35,Write,ACK
5.318803000000000,39,0x27,0x31,Write,ACK
5.318910500000000,39,0x27,0x21,Write,ACK
5.319017500000000,39,0x27,0x25,Write,ACK
5.319125000000000,39,0x27,0x21,Write,ACK
5.319232000000000,39,0x27,0x31,Write,ACK
5.319339500000000,39,0x27,0x35,Write,ACK
5.319446500000000,39,0x27,0x31,Write,ACK
5.319553500000000,39,0x27,0x31,Write,ACK
5.319661000000000,39,0x27,0x35,Write,ACK
5.319768000000000,39,0x27,0x31,Write,ACK
5.319875500000000,39,0x27,0x31,Write,ACK
5.319982500000000,39,0x27,0x35,Write,ACK
5.320089500000000,39,0x27,0x31,Write,ACK
5.320197000000000,39,0x27,0x41,Write,ACK
5.320304000000000,39,0x27,0x45,Write,ACK
5.320411500000000,39,0x27,0x41,Write,ACK
5.320518500000000,39,0x27,0x31,Write,ACK
5.320625500000000,39,0x27,0x35,Write,ACK
5.320733000000000,39,0x27,0x31,Write,ACK
5.320840000000000,39,0x27,0x51,Write,ACK
5.320947500000000,39,0x27,0x55,Write,ACK
5.321054500000000,39,0x27,0x51,Write,ACK
5.321162000000000,39,0x27,0x31,Write,ACK
5.321269000000000,39,0x27,0x35,Write,ACK
5.321376000000000,39,0x27,0x31,Write,ACK
5.321492500000000,39,0x27,0x61,Write,ACK
5.321599500000000,39,0x27,0x65,Write,ACK
5.321706500000000,39,0x27,0x61,Write,ACK
5.321814000000000,39,0x27,0x31,Write,ACK
5.321921000000000,39,0x27,0x35,Write,ACK
5.322028500000000,39,0x27,0x31,Write,ACK
5.322135500000000,39,0x27,0x71,Write,ACK
5.322243000000000,39,0x27,0x75,Write,ACK
5.322350000000000,39,0x27,0x71,Write,ACK
5.322457000000000,39,0x27,0x31,Write,ACK
5.322564500000000,39,0x27,0x35,Write,ACK
5.322671500000000,39,0x27,0x31,Write,ACK
5.322779000000000,39,0x27,0x81,Write,ACK
5.322886000000000,39,0x27,0x85,Write,ACK
5.322993500000000,39,0x27,0x81,Write,ACK
5.323100500000000,39,0x27,0x31,Write,ACK
5.323207500000000,39,0x27,0x35,Write,ACK
5.323315000000000,39,0x27,0x31,Write,ACK
