Time [s],Packet ID,Address,Data,Read/Write,ACK/NAK
2.881277500000000,0,0x27,0x08,Write,ACK
3.231339500000000,1,0x27,0x08,Write,ACK
3.631828000000000,2,0x27,0x08,Write,ACK
4.273741000000000,3,0x27,0x08,Write,ACK
4.914902000000000,4,0x27,0x08,Write,ACK
5.557164500000000,5,0x27,0x08,Write,ACK
6.199542000000000,6,0x27,0x08,Write,ACK
6.842536500000000,7,0x27,0x08,Write,ACK

write4bits(0x03 << 4);
delayMicroseconds(4500); // wait min 4.1ms
7.842419000000000,8,0x27,0x38,Write,ACK
7.842648500000000,9,0x27,0x3C,Write,ACK
7.842878000000000,10,0x27,0x38,Write,ACK
write4bits(0x03 << 4);
delayMicroseconds(4500); // wait min 4.1ms
7.847681000000000,11,0x27,0x38,Write,ACK
7.847915500000000,12,0x27,0x3C,Write,ACK
7.848145000000000,13,0x27,0x38,Write,ACK
write4bits(0x03 << 4); 
delayMicroseconds(150);
7.852948000000000,14,0x27,0x38,Write,ACK
7.853178000000000,15,0x27,0x3C,Write,ACK
7.853407500000000,16,0x27,0x38,Write,ACK
// finally, set to 4-bit interface
write4bits(0x02 << 4); 
7.853837000000000,17,0x27,0x28,Write,ACK
7.854066500000000,18,0x27,0x2C,Write,ACK
7.854296000000000,19,0x27,0x28,Write,ACK
command(LCD_FUNCTIONSET | _displayfunction);
7.854575500000000,20,0x27,0x28,Write,ACK
7.854805000000000,21,0x27,0x2C,Write,ACK
7.855034500000000,22,0x27,0x28,Write,ACK
7.855314500000000,23,0x27,0x88,Write,ACK
7.855544000000000,24,0x27,0x8C,Write,ACK
7.855773500000000,25,0x27,0x88,Write,ACK
Display Control + Dicplay On + Backlight ON
7.856058000000000,26,0x27,0x08,Write,ACK
7.856287500000000,27,0x27,0x0C,Write,ACK
7.856517000000000,28,0x27,0x08,Write,ACK
7.856796500000000,29,0x27,0xC8,Write,ACK
7.857026500000000,30,0x27,0xCC,Write,ACK
7.857256000000000,31,0x27,0xC8,Write,ACK
Clear + Backlight ON
7.857535500000000,32,0x27,0x08,Write,ACK
7.857765000000000,33,0x27,0x0C,Write,ACK
7.857995000000000,34,0x27,0x08,Write,ACK
7.858274500000000,35,0x27,0x18,Write,ACK
7.858504000000000,36,0x27,0x1C,Write,ACK
7.858733500000000,37,0x27,0x18,Write,ACK
Entry Mode + LCD_ENTRYLEFT + LCD_ENTRYSHIFTDECREMENT + Backlight ON
7.861027000000000,38,0x27,0x08,Write,ACK
7.861257000000000,39,0x27,0x0C,Write,ACK
7.861486500000000,40,0x27,0x08,Write,ACK
7.861766000000000,41,0x27,0x68,Write,ACK
7.861995500000000,42,0x27,0x6C,Write,ACK
7.862230000000000,43,0x27,0x68,Write,ACK
Home + Backlight ON
7.862510000000000,44,0x27,0x08,Write,ACK
7.862739500000000,45,0x27,0x0C,Write,ACK
7.862969000000000,46,0x27,0x08,Write,ACK
7.863258500000000,47,0x27,0x28,Write,ACK
7.863488000000000,48,0x27,0x2C,Write,ACK
7.863718000000000,49,0x27,0x28,Write,ACK
Backlight ON
7.866006500000000,50,0x27,0x08,Write,ACK
48 = H
7.866246500000000,51,0x27,0x49,Write,ACK
7.866476000000000,52,0x27,0x4D,Write,ACK
7.866705500000000,53,0x27,0x49,Write,ACK
7.866985000000000,54,0x27,0x89,Write,ACK
7.867214500000000,55,0x27,0x8D,Write,ACK
7.867444000000000,56,0x27,0x89,Write,ACK
65 = e
7.867729000000000,57,0x27,0x69,Write,ACK
7.867958500000000,58,0x27,0x6D,Write,ACK
7.868188000000000,59,0x27,0x69,Write,ACK
7.868467500000000,60,0x27,0x59,Write,ACK
7.868697000000000,61,0x27,0x5D,Write,ACK
7.868926500000000,62,0x27,0x59,Write,ACK
6C = l
7.869211500000000,63,0x27,0x69,Write,ACK
7.869441000000000,64,0x27,0x6D,Write,ACK
7.869670500000000,65,0x27,0x69,Write,ACK
7.869950000000000,66,0x27,0xC9,Write,ACK
7.870179500000000,67,0x27,0xCD,Write,ACK
7.870414500000000,68,0x27,0xC9,Write,ACK

7.870699000000000,69,0x27,0x69,Write,ACK
7.870928500000000,70,0x27,0x6D,Write,ACK
7.871158000000000,71,0x27,0x69,Write,ACK
7.871448000000000,72,0x27,0xC9,Write,ACK
7.871677500000000,73,0x27,0xCD,Write,ACK
7.871907000000000,74,0x27,0xC9,Write,ACK

7.872191500000000,75,0x27,0x69,Write,ACK
7.872421000000000,76,0x27,0x6D,Write,ACK
7.872650500000000,77,0x27,0x69,Write,ACK
7.872930500000000,78,0x27,0xF9,Write,ACK
7.873160000000000,79,0x27,0xFD,Write,ACK
7.873389500000000,80,0x27,0xF9,Write,ACK

7.873674000000000,81,0x27,0x29,Write,ACK
7.873903500000000,82,0x27,0x2D,Write,ACK
7.874133500000000,83,0x27,0x29,Write,ACK
7.874413000000000,84,0x27,0xC9,Write,ACK
7.874642500000000,85,0x27,0xCD,Write,ACK
7.874872000000000,86,0x27,0xC9,Write,ACK

7.875156500000000,87,0x27,0x29,Write,ACK
7.875386000000000,88,0x27,0x2D,Write,ACK
7.875615500000000,89,0x27,0x29,Write,ACK
7.875895500000000,90,0x27,0x09,Write,ACK
7.876125000000000,91,0x27,0x0D,Write,ACK
7.876354500000000,92,0x27,0x09,Write,ACK

7.876640000000000,93,0x27,0x79,Write,ACK
7.876870000000000,94,0x27,0x7D,Write,ACK
7.877099500000000,95,0x27,0x79,Write,ACK
7.877379000000000,96,0x27,0x79,Write,ACK
7.877608500000000,97,0x27,0x7D,Write,ACK
7.877838000000000,98,0x27,0x79,Write,ACK
6F = o
7.878123000000000,99,0x27,0x69,Write,ACK
7.878352500000000,100,0x27,0x6D,Write,ACK
7.878582000000000,101,0x27,0x69,Write,ACK
7.878861500000000,102,0x27,0xF9,Write,ACK
7.879091000000000,103,0x27,0xFD,Write,ACK
7.879321000000000,104,0x27,0xF9,Write,ACK
72 = r
7.879605500000000,105,0x27,0x79,Write,ACK
7.879835000000000,106,0x27,0x7D,Write,ACK
7.880064500000000,107,0x27,0x79,Write,ACK
7.880344000000000,108,0x27,0x29,Write,ACK
7.880573500000000,109,0x27,0x2D,Write,ACK
7.880803000000000,110,0x27,0x29,Write,ACK
6C = l
7.881088000000000,111,0x27,0x69,Write,ACK
7.881317500000000,112,0x27,0x6D,Write,ACK
7.881547000000000,113,0x27,0x69,Write,ACK
7.881826500000000,114,0x27,0xC9,Write,ACK
7.882056000000000,115,0x27,0xCD,Write,ACK
7.882286000000000,116,0x27,0xC9,Write,ACK
64 = d
7.882570500000000,117,0x27,0x69,Write,ACK
7.882800000000000,118,0x27,0x6D,Write,ACK
7.883029500000000,119,0x27,0x69,Write,ACK
7.883309000000000,120,0x27,0x49,Write,ACK
7.883538500000000,121,0x27,0x4D,Write,ACK
7.883768500000000,122,0x27,0x49,Write,ACK
21 = !
7.884053000000000,123,0x27,0x29,Write,ACK
7.884282500000000,124,0x27,0x2D,Write,ACK
7.884512000000000,125,0x27,0x29,Write,ACK
7.884801500000000,126,0x27,0x19,Write,ACK
7.885031000000000,127,0x27,0x1D,Write,ACK
7.885261000000000,128,0x27,0x19,Write,ACK
